
T307C 000:128 SEGGER J-Link V6.44a Log File (0001ms, 0042ms total)
T307C 000:128 DLL Compiled: Mar  8 2019 17:31:48 (0001ms, 0042ms total)
T307C 000:128 Logging started @ 2019-05-03 16:38 (0001ms, 0042ms total)
T307C 000:129 JLINK_SetWarnOutHandler(...) (0001ms, 0043ms total)
T307C 000:130 JLINK_OpenEx(...)
Firmware: J-Link ARM-OB STM32 compiled Aug 22 2012 19:52:04
Hardware: V7.00
S/N: 20090928
Feature(s): RDI,FlashDL,FlashBP,JFlash,GDB
TELNET listener socket opened on port 19021WEBSRV 
Starting webserver (0015ms, 0058ms total)
T307C 000:130 WEBSRV Webserver running on local port 19080 (0015ms, 0058ms total)
T307C 000:130   returns O.K. (0015ms, 0058ms total)
T307C 000:145 JLINK_GetEmuCaps()  returns 0x88EA5833 (0000ms, 0058ms total)
T307C 000:145 JLINK_TIF_GetAvailable(...) (0001ms, 0059ms total)
T307C 000:146 JLINK_SetErrorOutHandler(...) (0000ms, 0059ms total)
T307C 000:146 JLINK_ExecCommand("ProjectFile = "F:\Work\hero\Ð¡ÔÆÌ¨\MDK-ARM\JLinkSettings.ini"", ...). Device "STM32F427II" selected.  returns 0x00 (0075ms, 0134ms total)
T307C 000:224 JLINK_ExecCommand("Device = STM32F427IIHx", ...). Device "STM32F427II" selected.  returns 0x00 (0004ms, 0138ms total)
T307C 000:228 JLINK_ExecCommand("DisableConnectionTimeout", ...).   returns 0x01 (0000ms, 0138ms total)
T307C 000:228 JLINK_GetHardwareVersion()  returns 0x11170 (0000ms, 0138ms total)
T307C 000:228 JLINK_GetDLLVersion()  returns 64401 (0000ms, 0138ms total)
T307C 000:228 JLINK_GetFirmwareString(...) (0000ms, 0138ms total)
T307C 000:231 JLINK_GetDLLVersion()  returns 64401 (0001ms, 0139ms total)
T307C 000:232 JLINK_GetCompileDateTime() (0000ms, 0139ms total)
T307C 000:232 JLINK_GetFirmwareString(...) (0000ms, 0139ms total)
T307C 000:233 JLINK_GetHardwareVersion()  returns 0x11170 (0000ms, 0139ms total)
T307C 000:237 JLINK_TIF_Select(JLINKARM_TIF_SWD)  returns 0x00 (0003ms, 0142ms total)
T307C 000:240 JLINK_SetSpeed(5000) (0001ms, 0143ms total)
T307C 000:241 JLINK_GetId() >0x10B TIF>Found SW-DP with ID 0x2BA01477 >0x0D TIF> >0x28 TIF> >0x0D TIF> >0x28 TIF> >0x0D TIF> >0x28 TIF> >0x0D TIF> >0x28 TIF> >0x0D TIF> >0x21 TIF> >0x0D TIF> >0x28 TIF> >0x0D TIF> >0x28 TIF> >0x0D TIF> >0x28 TIF> >0x0D TIF> >0x21 TIF> >0x0D TIF> >0x21 TIF> >0x0D TIF> >0x28 TIF> >0x0D TIF> >0x21 TIF> >0x0D TIF> >0x21 TIF> >0x0D TIF> >0x28 TIF> >0x0D TIF> >0x21 TIF> >0x0D TIF> >0x21 TIF> >0x0D TIF> >0x28 TIF> >0x0D TIF> >0x21 TIF> >0x0D TIF> >0x21 TIF> >0x0D TIF> >0x28 TIF>
 >0x0D TIF> >0x21 TIF> >0x0D TIF> >0x21 TIF> >0x0D TIF> >0x28 TIF> >0x0D TIF> >0x21 TIF> >0x0D TIF> >0x21 TIF> >0x0D TIF> >0x28 TIF> >0x0D TIF> >0x21 TIF> >0x0D TIF> >0x21 TIF> >0x10B TIF>Found SW-DP with ID 0x2BA01477 >0x0D TIF> >0x28 TIF> >0x0D TIF> >0x28 TIF> >0x0D TIF> >0x28 TIF> >0x0D TIF> >0x28 TIF> >0x0D TIF> >0x21 TIF> >0x0D TIF> >0x28 TIF>Scanning AP map to find all available APs >0x0D TIF> >0x28 TIF> >0x0D TIF> >0x21 TIF> >0x0D TIF> >0x21 TIF> >0x0D TIF> >0x28 TIF> >0x0D TIF> >0x21 TIF>
 >0x0D TIF> >0x21 TIF>AP[1]: Stopped AP scan as end of AP map has been reachedAP[0]: AHB-AP (IDR: 0x24770011)Iterating through AP map to find AHB-AP to use >0x42 TIF> >0x28 TIF> >0x0D TIF> >0x28 TIF> >0x0D TIF> >0x21 TIF> >0x0D TIF> >0x21 TIF> >0x42 TIF> >0x28 TIF> >0x0D TIF> >0x28 TIF> >0x0D TIF> >0x28 TIF> >0x0D TIF> >0x21 TIF> >0x0D TIF> >0x21 TIF>AP[0]: Core foundAP[0]: AHB-AP ROM base: 0xE00FF000 >0x0D TIF> >0x28 TIF> >0x0D TIF> >0x28 TIF> >0x0D TIF> >0x28 TIF> >0x0D TIF> >0x21 TIF> >0x0D TIF>
 >0x21 TIF>CPUID register: 0x410FC241. Implementer code: 0x41 (ARM)Found Cortex-M4 r0p1, Little endian. -- Max. mem block: 0x00002C08 -- CPU_ReadMem(4 bytes @ 0xE000EDF0) -- CPU_ReadMem(4 bytes @ 0xE0002000)FPUnit: 6 code (BP) slots and 2 literal slots -- CPU_ReadMem(4 bytes @ 0xE000EDFC) -- CPU_ReadMem(4 bytes @ 0xE0001000) -- CPU_WriteMem(4 bytes @ 0xE0001000) -- CPU_ReadMem(4 bytes @ 0xE000ED88) -- CPU_WriteMem(4 bytes @ 0xE000ED88) -- CPU_ReadMem(4 bytes @ 0xE000ED88)
 -- CPU_WriteMem(4 bytes @ 0xE000ED88)CoreSight components:ROMTbl[0] @ E00FF000 -- CPU_ReadMem(16 bytes @ 0xE00FF000) -- CPU_ReadMem(16 bytes @ 0xE000EFF0) -- CPU_ReadMem(16 bytes @ 0xE000EFE0)ROMTbl[0][0]: E000E000, CID: B105E00D, PID: 000BB00C SCS-M7 -- CPU_ReadMem(16 bytes @ 0xE0001FF0) -- CPU_ReadMem(16 bytes @ 0xE0001FE0)ROMTbl[0][1]: E0001000, CID: B105E00D, PID: 003BB002 DWT -- CPU_ReadMem(16 bytes @ 0xE0002FF0) -- CPU_ReadMem(16 bytes @ 0xE0002FE0)
ROMTbl[0][2]: E0002000, CID: B105E00D, PID: 002BB003 FPB -- CPU_ReadMem(16 bytes @ 0xE0000FF0) -- CPU_ReadMem(16 bytes @ 0xE0000FE0)ROMTbl[0][3]: E0000000, CID: B105E00D, PID: 003BB001 ITM -- CPU_ReadMem(16 bytes @ 0xE00FF010) -- CPU_ReadMem(16 bytes @ 0xE0040FF0) -- CPU_ReadMem(16 bytes @ 0xE0040FE0)ROMTbl[0][4]: E0040000, CID: B105900D, PID: 000BB9A1 TPIU -- CPU_ReadMem(16 bytes @ 0xE0041FF0) -- CPU_ReadMem(16 bytes @ 0xE0041FE0)ROMTbl[0][5]: E0041000, CID: B105900D, PID: 000BB925 ETM >0x0D TIF>
 >0x21 TIF>  returns 0x2BA01477 (0232ms, 0375ms total)
T307C 000:473 JLINK_GetDLLVersion()  returns 64401 (0000ms, 0375ms total)
T307C 000:473 JLINK_CORE_GetFound()  returns 0xE0000FF (0000ms, 0375ms total)
T307C 000:473 JLINK_GetDebugInfo(0x100 = JLINKARM_ROM_TABLE_ADDR_INDEX) -- Value=0xE00FF000  returns 0x00 (0000ms, 0375ms total)
T307C 000:474 JLINK_GetDebugInfo(0x100 = JLINKARM_ROM_TABLE_ADDR_INDEX) -- Value=0xE00FF000  returns 0x00 (0000ms, 0375ms total)
T307C 000:474 JLINK_GetDebugInfo(0x101 = JLINKARM_DEBUG_INFO_ETM_ADDR_INDEX) -- Value=0xE0041000  returns 0x00 (0000ms, 0375ms total)
T307C 000:474 JLINK_ReadMemEx(0xE0041FD0, 0x0020 Bytes, ..., Flags = 0x02000004) -- CPU_ReadMem(32 bytes @ 0xE0041FD0) - Data: 04 00 00 00 00 00 00 00 00 00 00 00 00 00 00 00 ...  returns 0x20 (0002ms, 0377ms total)
T307C 000:476 JLINK_GetDebugInfo(0x102 = JLINKARM_DEBUG_INFO_MTB_ADDR_INDEX) -- Value=0x00000000  returns 0x00 (0000ms, 0377ms total)
T307C 000:476 JLINK_GetDebugInfo(0x103 = JLINKARM_DEBUG_INFO_TPIU_ADDR_INDEX) -- Value=0xE0040000  returns 0x00 (0000ms, 0377ms total)
T307C 000:476 JLINK_GetDebugInfo(0x104 = JLINKARM_DEBUG_INFO_ITM_ADDR_INDEX) -- Value=0xE0000000  returns 0x00 (0000ms, 0377ms total)
T307C 000:476 JLINK_GetDebugInfo(0x105 = JLINKARM_DEBUG_INFO_DWT_ADDR_INDEX) -- Value=0xE0001000  returns 0x00 (0000ms, 0377ms total)
T307C 000:476 JLINK_GetDebugInfo(0x106 = JLINKARM_DEBUG_INFO_FPB_ADDR_INDEX) -- Value=0xE0002000  returns 0x00 (0000ms, 0377ms total)
T307C 000:476 JLINK_GetDebugInfo(0x107 = JLINKARM_DEBUG_INFO_NVIC_ADDR_INDEX) -- Value=0xE000E000  returns 0x00 (0000ms, 0377ms total)
T307C 000:476 JLINK_GetDebugInfo(0x10C = JLINKARM_DEBUG_INFO_DBG_ADDR_INDEX) -- Value=0xE000EDF0  returns 0x00 (0000ms, 0377ms total)
T307C 000:476 JLINK_GetDebugInfo(0x01 = Unknown) -- Value=0x00000001  returns 0x00 (0000ms, 0377ms total)
T307C 000:476 JLINK_ReadMemU32(0xE000ED00, 0x0001 Items, ...) -- CPU_ReadMem(4 bytes @ 0xE000ED00) - Data: 41 C2 0F 41  returns 1 (0001ms, 0378ms total)
T307C 000:477 JLINK_GetDebugInfo(0x10F = JLINKARM_DEBUG_INFO_HAS_CORTEX_M_SECURITY_EXT_INDEX) -- Value=0x00000000  returns 0x00 (0000ms, 0378ms total)
T307C 000:477 JLINK_SetResetType(JLINKARM_CM3_RESET_TYPE_NORMAL)  returns JLINKARM_CM3_RESET_TYPE_NORMAL (0000ms, 0378ms total)
T307C 000:477 JLINK_Reset() -- CPU is running -- CPU_WriteMem(4 bytes @ 0xE000EDF0) -- CPU is running -- CPU_WriteMem(4 bytes @ 0xE000EDFC)Reset: Halt core after reset via DEMCR.VC_CORERESET. >0x35 TIF>Reset: Reset device via AIRCR.SYSRESETREQ. -- CPU is running -- CPU_WriteMem(4 bytes @ 0xE000ED0C) >0x0D TIF> >0x28 TIF> -- CPU_ReadMem(4 bytes @ 0xE000EDF0) -- CPU_ReadMem(4 bytes @ 0xE000EDF0) -- CPU is running -- CPU_WriteMem(4 bytes @ 0xE000EDF0) -- CPU is running -- CPU_WriteMem(4 bytes @ 0xE000EDFC)
 -- CPU_ReadMem(4 bytes @ 0xE000EDF0) -- CPU_WriteMem(4 bytes @ 0xE0002000) -- CPU_ReadMem(4 bytes @ 0xE000EDFC) -- CPU_ReadMem(4 bytes @ 0xE0001000) (0079ms, 0457ms total)
T307C 000:556 JLINK_Halt()  returns 0x00 (0000ms, 0457ms total)
T307C 000:556 JLINK_ReadMemU32(0xE000EDF0, 0x0001 Items, ...) -- CPU_ReadMem(4 bytes @ 0xE000EDF0) - Data: 03 00 03 00  returns 1 (0001ms, 0458ms total)
T307C 000:557 JLINK_WriteU32(0xE000EDF0, 0xA05F0003) -- CPU_WriteMem(4 bytes @ 0xE000EDF0)  returns 0 (0001ms, 0459ms total)
T307C 000:558 JLINK_WriteU32(0xE000EDFC, 0x01000000) -- CPU_WriteMem(4 bytes @ 0xE000EDFC)  returns 0 (0001ms, 0460ms total)
T307C 000:566 JLINK_GetHWStatus(...)  returns 0x00 (0000ms, 0460ms total)
T307C 000:569 JLINK_GetNumBPUnits(Type = 0xFFFFFF00)  returns 0x06 (0000ms, 0460ms total)
T307C 000:569 JLINK_GetNumBPUnits(Type = 0xF0)  returns 0x2000 (0000ms, 0460ms total)
T307C 000:569 JLINK_GetNumWPUnits()  returns 0x04 (0000ms, 0460ms total)
T307C 000:572 JLINK_GetSpeed()  returns 0xFA0 (0000ms, 0460ms total)
T307C 000:574 JLINK_ReadMemU32(0xE000E004, 0x0001 Items, ...) -- CPU_ReadMem(4 bytes @ 0xE000E004) - Data: 02 00 00 00  returns 1 (0001ms, 0461ms total)
T307C 000:575 JLINK_ReadMemU32(0xE000E004, 0x0001 Items, ...) -- CPU_ReadMem(4 bytes @ 0xE000E004) - Data: 02 00 00 00  returns 1 (0001ms, 0462ms total)
T307C 000:576 JLINK_WriteMemEx(0xE0001000, 0x001C Bytes, ..., Flags = 0x02000004) - Data: 01 00 00 00 00 00 00 00 00 00 00 00 00 00 00 00 ... -- CPU_WriteMem(28 bytes @ 0xE0001000)  returns 0x1C (0002ms, 0464ms total)
T307C 000:578 JLINK_Halt()  returns 0x00 (0000ms, 0464ms total)
T307C 000:578 JLINK_IsHalted()  returns TRUE (0000ms, 0464ms total)
T307C 000:583 JLINK_WriteMem(0x20000000, 0x0198 Bytes, ...) - Data: 00 BE 0A E0 0D 78 2D 06 68 40 08 24 40 00 00 D3 ... -- CPU_WriteMem(408 bytes @ 0x20000000)  returns 0x198 (0006ms, 0470ms total)
T307C 000:589 JLINK_WriteReg(R0, 0x08000000)  returns 0x00 (0000ms, 0470ms total)
T307C 000:589 JLINK_WriteReg(R1, 0x00B71B00)  returns 0x00 (0000ms, 0470ms total)
T307C 000:589 JLINK_WriteReg(R2, 0x00000001)  returns 0x00 (0000ms, 0470ms total)
T307C 000:589 JLINK_WriteReg(R3, 0x00000000)  returns 0x00 (0000ms, 0470ms total)
T307C 000:589 JLINK_WriteReg(R4, 0x00000000)  returns 0x00 (0000ms, 0470ms total)
T307C 000:589 JLINK_WriteReg(R5, 0x00000000)  returns 0x00 (0000ms, 0470ms total)
T307C 000:589 JLINK_WriteReg(R6, 0x00000000)  returns 0x00 (0000ms, 0470ms total)
T307C 000:589 JLINK_WriteReg(R7, 0x00000000)  returns 0x00 (0000ms, 0470ms total)
T307C 000:589 JLINK_WriteReg(R8, 0x00000000)  returns 0x00 (0001ms, 0471ms total)
T307C 000:590 JLINK_WriteReg(R9, 0x20000194)  returns 0x00 (0000ms, 0471ms total)
T307C 000:590 JLINK_WriteReg(R10, 0x00000000)  returns 0x00 (0000ms, 0471ms total)
T307C 000:590 JLINK_WriteReg(R11, 0x00000000)  returns 0x00 (0000ms, 0471ms total)
T307C 000:590 JLINK_WriteReg(R12, 0x00000000)  returns 0x00 (0000ms, 0471ms total)
T307C 000:590 JLINK_WriteReg(R13 (SP), 0x20001000)  returns 0x00 (0000ms, 0471ms total)
T307C 000:590 JLINK_WriteReg(R14, 0x20000001)  returns 0x00 (0000ms, 0471ms total)
T307C 000:590 JLINK_WriteReg(R15 (PC), 0x2000005E)  returns 0x00 (0000ms, 0471ms total)
T307C 000:590 JLINK_WriteReg(XPSR, 0x01000000)  returns 0x00 (0000ms, 0471ms total)
T307C 000:590 JLINK_WriteReg(MSP, 0x20001000)  returns 0x00 (0000ms, 0471ms total)
T307C 000:590 JLINK_WriteReg(PSP, 0x20001000)  returns 0x00 (0000ms, 0471ms total)
T307C 000:590 JLINK_WriteReg(CFBP, 0x00000000)  returns 0x00 (0000ms, 0471ms total)
T307C 000:590 JLINK_SetBPEx(Addr = 0x20000000, Type = 0xFFFFFFF2) -- CPU_ReadMem(2 bytes @ 0x20000000)  returns 0x00000001 (0001ms, 0472ms total)
T307C 000:591 JLINK_Go() -- CPU_WriteMem(2 bytes @ 0x20000000) -- CPU_ReadMem(4 bytes @ 0xE0001000) -- CPU_WriteMem(4 bytes @ 0xE0002008) -- CPU_WriteMem(4 bytes @ 0xE000200C) -- CPU_WriteMem(4 bytes @ 0xE0002010) -- CPU_WriteMem(4 bytes @ 0xE0002014) -- CPU_WriteMem(4 bytes @ 0xE0002018) -- CPU_WriteMem(4 bytes @ 0xE000201C) -- CPU_WriteMem(4 bytes @ 0xE0001004) (0011ms, 0483ms total)
T307C 000:602 JLINK_IsHalted() -- CPU_ReadMem(2 bytes @ 0x20000000)  returns TRUE (0005ms, 0488ms total)
T307C 000:607 JLINK_ReadReg(R15 (PC))  returns 0x20000000 (0000ms, 0483ms total)
T307C 000:607 JLINK_ClrBPEx(BPHandle = 0x00000001)  returns 0x00 (0000ms, 0483ms total)
T307C 000:607 JLINK_ReadReg(R0)  returns 0x00000000 (0000ms, 0483ms total)
T307C 000:608 JLINK_WriteReg(R0, 0x08000000)  returns 0x00 (0000ms, 0483ms total)
T307C 000:608 JLINK_WriteReg(R1, 0x00004000)  returns 0x00 (0000ms, 0483ms total)
T307C 000:608 JLINK_WriteReg(R2, 0x000000FF)  returns 0x00 (0000ms, 0483ms total)
T307C 000:608 JLINK_WriteReg(R3, 0x00000000)  returns 0x00 (0000ms, 0483ms total)
T307C 000:608 JLINK_WriteReg(R4, 0x00000000)  returns 0x00 (0000ms, 0483ms total)
T307C 000:608 JLINK_WriteReg(R5, 0x00000000)  returns 0x00 (0000ms, 0483ms total)
T307C 000:608 JLINK_WriteReg(R6, 0x00000000)  returns 0x00 (0000ms, 0483ms total)
T307C 000:608 JLINK_WriteReg(R7, 0x00000000)  returns 0x00 (0000ms, 0483ms total)
T307C 000:608 JLINK_WriteReg(R8, 0x00000000)  returns 0x00 (0000ms, 0483ms total)
T307C 000:608 JLINK_WriteReg(R9, 0x20000194)  returns 0x00 (0000ms, 0483ms total)
T307C 000:608 JLINK_WriteReg(R10, 0x00000000)  returns 0x00 (0000ms, 0483ms total)
T307C 000:608 JLINK_WriteReg(R11, 0x00000000)  returns 0x00 (0000ms, 0483ms total)
T307C 000:608 JLINK_WriteReg(R12, 0x00000000)  returns 0x00 (0000ms, 0483ms total)
T307C 000:608 JLINK_WriteReg(R13 (SP), 0x20001000)  returns 0x00 (0000ms, 0483ms total)
T307C 000:608 JLINK_WriteReg(R14, 0x20000001)  returns 0x00 (0000ms, 0483ms total)
T307C 000:608 JLINK_WriteReg(R15 (PC), 0x20000020)  returns 0x00 (0000ms, 0483ms total)
T307C 000:608 JLINK_WriteReg(XPSR, 0x01000000)  returns 0x00 (0000ms, 0483ms total)
T307C 000:608 JLINK_WriteReg(MSP, 0x20001000)  returns 0x00 (0000ms, 0483ms total)
T307C 000:608 JLINK_WriteReg(PSP, 0x20001000)  returns 0x00 (0000ms, 0483ms total)
T307C 000:608 JLINK_WriteReg(CFBP, 0x00000000)  returns 0x00 (0001ms, 0484ms total)
T307C 000:609 JLINK_SetBPEx(Addr = 0x20000000, Type = 0xFFFFFFF2)  returns 0x00000002 (0000ms, 0484ms total)
T307C 000:609 JLINK_Go() -- CPU_ReadMem(4 bytes @ 0xE0001000) (0004ms, 0488ms total)
T307C 000:613 JLINK_IsHalted() -- CPU_ReadMem(2 bytes @ 0x20000000)  returns TRUE (0006ms, 0494ms total)
T307C 000:619 JLINK_ReadReg(R15 (PC))  returns 0x20000000 (0000ms, 0488ms total)
T307C 000:619 JLINK_ClrBPEx(BPHandle = 0x00000002)  returns 0x00 (0000ms, 0488ms total)
T307C 000:619 JLINK_ReadReg(R0)  returns 0x00000001 (0000ms, 0488ms total)
T307C 000:619 JLINK_WriteReg(R0, 0x08000000)  returns 0x00 (0000ms, 0488ms total)
T307C 000:619 JLINK_WriteReg(R1, 0x00004000)  returns 0x00 (0000ms, 0488ms total)
T307C 000:619 JLINK_WriteReg(R2, 0x000000FF)  returns 0x00 (0000ms, 0488ms total)
T307C 000:619 JLINK_WriteReg(R3, 0x00000000)  returns 0x00 (0000ms, 0488ms total)
T307C 000:619 JLINK_WriteReg(R4, 0x00000000)  returns 0x00 (0000ms, 0488ms total)
T307C 000:619 JLINK_WriteReg(R5, 0x00000000)  returns 0x00 (0000ms, 0488ms total)
T307C 000:619 JLINK_WriteReg(R6, 0x00000000)  returns 0x00 (0000ms, 0488ms total)
T307C 000:619 JLINK_WriteReg(R7, 0x00000000)  returns 0x00 (0000ms, 0488ms total)
T307C 000:619 JLINK_WriteReg(R8, 0x00000000)  returns 0x00 (0000ms, 0488ms total)
T307C 000:619 JLINK_WriteReg(R9, 0x20000194)  returns 0x00 (0000ms, 0488ms total)
T307C 000:619 JLINK_WriteReg(R10, 0x00000000)  returns 0x00 (0000ms, 0488ms total)
T307C 000:619 JLINK_WriteReg(R11, 0x00000000)  returns 0x00 (0000ms, 0488ms total)
T307C 000:619 JLINK_WriteReg(R12, 0x00000000)  returns 0x00 (0000ms, 0488ms total)
T307C 000:619 JLINK_WriteReg(R13 (SP), 0x20001000)  returns 0x00 (0000ms, 0488ms total)
T307C 000:619 JLINK_WriteReg(R14, 0x20000001)  returns 0x00 (0000ms, 0488ms total)
T307C 000:619 JLINK_WriteReg(R15 (PC), 0x200000D4)  returns 0x00 (0000ms, 0488ms total)
T307C 000:619 JLINK_WriteReg(XPSR, 0x01000000)  returns 0x00 (0000ms, 0488ms total)
T307C 000:619 JLINK_WriteReg(MSP, 0x20001000)  returns 0x00 (0000ms, 0488ms total)
T307C 000:619 JLINK_WriteReg(PSP, 0x20001000)  returns 0x00 (0000ms, 0488ms total)
T307C 000:619 JLINK_WriteReg(CFBP, 0x00000000)  returns 0x00 (0000ms, 0488ms total)
T307C 000:619 JLINK_SetBPEx(Addr = 0x20000000, Type = 0xFFFFFFF2)  returns 0x00000003 (0000ms, 0488ms total)
T307C 000:619 JLINK_Go() -- CPU_ReadMem(4 bytes @ 0xE0001000) (0006ms, 0494ms total)
T307C 000:625 JLINK_IsHalted()  returns FALSE (0001ms, 0495ms total)
T307C 000:875 JLINK_IsHalted()  returns FALSE (0001ms, 0495ms total)
T307C 001:109 JLINK_IsHalted() -- CPU_ReadMem(2 bytes @ 0x20000000)  returns TRUE (0005ms, 0499ms total)
T307C 001:114 JLINK_ReadReg(R15 (PC))  returns 0x20000000 (0000ms, 0494ms total)
T307C 001:114 JLINK_ClrBPEx(BPHandle = 0x00000003)  returns 0x00 (0000ms, 0494ms total)
T307C 001:114 JLINK_ReadReg(R0)  returns 0x00000000 (0000ms, 0494ms total)
T307C 001:114 JLINK_WriteReg(R0, 0x08004000)  returns 0x00 (0000ms, 0494ms total)
T307C 001:114 JLINK_WriteReg(R1, 0x00004000)  returns 0x00 (0000ms, 0494ms total)
T307C 001:114 JLINK_WriteReg(R2, 0x000000FF)  returns 0x00 (0000ms, 0494ms total)
T307C 001:114 JLINK_WriteReg(R3, 0x00000000)  returns 0x00 (0000ms, 0494ms total)
T307C 001:114 JLINK_WriteReg(R4, 0x00000000)  returns 0x00 (0000ms, 0494ms total)
T307C 001:114 JLINK_WriteReg(R5, 0x00000000)  returns 0x00 (0000ms, 0494ms total)
T307C 001:114 JLINK_WriteReg(R6, 0x00000000)  returns 0x00 (0001ms, 0495ms total)
T307C 001:115 JLINK_WriteReg(R7, 0x00000000)  returns 0x00 (0000ms, 0495ms total)
T307C 001:115 JLINK_WriteReg(R8, 0x00000000)  returns 0x00 (0000ms, 0495ms total)
T307C 001:115 JLINK_WriteReg(R9, 0x20000194)  returns 0x00 (0000ms, 0495ms total)
T307C 001:115 JLINK_WriteReg(R10, 0x00000000)  returns 0x00 (0000ms, 0495ms total)
T307C 001:115 JLINK_WriteReg(R11, 0x00000000)  returns 0x00 (0000ms, 0495ms total)
T307C 001:115 JLINK_WriteReg(R12, 0x00000000)  returns 0x00 (0000ms, 0495ms total)
T307C 001:115 JLINK_WriteReg(R13 (SP), 0x20001000)  returns 0x00 (0000ms, 0495ms total)
T307C 001:115 JLINK_WriteReg(R14, 0x20000001)  returns 0x00 (0000ms, 0495ms total)
T307C 001:115 JLINK_WriteReg(R15 (PC), 0x20000020)  returns 0x00 (0000ms, 0495ms total)
T307C 001:115 JLINK_WriteReg(XPSR, 0x01000000)  returns 0x00 (0000ms, 0495ms total)
T307C 001:115 JLINK_WriteReg(MSP, 0x20001000)  returns 0x00 (0000ms, 0495ms total)
T307C 001:115 JLINK_WriteReg(PSP, 0x20001000)  returns 0x00 (0000ms, 0495ms total)
T307C 001:115 JLINK_WriteReg(CFBP, 0x00000000)  returns 0x00 (0000ms, 0495ms total)
T307C 001:115 JLINK_SetBPEx(Addr = 0x20000000, Type = 0xFFFFFFF2)  returns 0x00000004 (0000ms, 0495ms total)
T307C 001:115 JLINK_Go() -- CPU_ReadMem(4 bytes @ 0xE0001000) (0005ms, 0500ms total)
T307C 001:120 JLINK_IsHalted() -- CPU_ReadMem(2 bytes @ 0x20000000)  returns TRUE (0004ms, 0504ms total)
T307C 001:124 JLINK_ReadReg(R15 (PC))  returns 0x20000000 (0000ms, 0500ms total)
T307C 001:124 JLINK_ClrBPEx(BPHandle = 0x00000004)  returns 0x00 (0001ms, 0501ms total)
T307C 001:125 JLINK_ReadReg(R0)  returns 0x00000001 (0000ms, 0501ms total)
T307C 001:125 JLINK_WriteReg(R0, 0x08004000)  returns 0x00 (0000ms, 0501ms total)
T307C 001:125 JLINK_WriteReg(R1, 0x00004000)  returns 0x00 (0000ms, 0501ms total)
T307C 001:125 JLINK_WriteReg(R2, 0x000000FF)  returns 0x00 (0000ms, 0501ms total)
T307C 001:125 JLINK_WriteReg(R3, 0x00000000)  returns 0x00 (0000ms, 0501ms total)
T307C 001:125 JLINK_WriteReg(R4, 0x00000000)  returns 0x00 (0000ms, 0501ms total)
T307C 001:125 JLINK_WriteReg(R5, 0x00000000)  returns 0x00 (0000ms, 0501ms total)
T307C 001:125 JLINK_WriteReg(R6, 0x00000000)  returns 0x00 (0000ms, 0501ms total)
T307C 001:125 JLINK_WriteReg(R7, 0x00000000)  returns 0x00 (0000ms, 0501ms total)
T307C 001:125 JLINK_WriteReg(R8, 0x00000000)  returns 0x00 (0000ms, 0501ms total)
T307C 001:125 JLINK_WriteReg(R9, 0x20000194)  returns 0x00 (0000ms, 0501ms total)
T307C 001:125 JLINK_WriteReg(R10, 0x00000000)  returns 0x00 (0000ms, 0501ms total)
T307C 001:125 JLINK_WriteReg(R11, 0x00000000)  returns 0x00 (0000ms, 0501ms total)
T307C 001:125 JLINK_WriteReg(R12, 0x00000000)  returns 0x00 (0000ms, 0501ms total)
T307C 001:125 JLINK_WriteReg(R13 (SP), 0x20001000)  returns 0x00 (0000ms, 0501ms total)
T307C 001:125 JLINK_WriteReg(R14, 0x20000001)  returns 0x00 (0000ms, 0501ms total)
T307C 001:125 JLINK_WriteReg(R15 (PC), 0x200000D4)  returns 0x00 (0000ms, 0501ms total)
T307C 001:125 JLINK_WriteReg(XPSR, 0x01000000)  returns 0x00 (0000ms, 0501ms total)
T307C 001:125 JLINK_WriteReg(MSP, 0x20001000)  returns 0x00 (0000ms, 0501ms total)
T307C 001:125 JLINK_WriteReg(PSP, 0x20001000)  returns 0x00 (0000ms, 0501ms total)
T307C 001:125 JLINK_WriteReg(CFBP, 0x00000000)  returns 0x00 (0000ms, 0501ms total)
T307C 001:125 JLINK_SetBPEx(Addr = 0x20000000, Type = 0xFFFFFFF2)  returns 0x00000005 (0000ms, 0501ms total)
T307C 001:125 JLINK_Go() -- CPU_ReadMem(4 bytes @ 0xE0001000) (0004ms, 0505ms total)
T307C 001:129 JLINK_IsHalted()  returns FALSE (0001ms, 0506ms total)
T307C 001:323 JLINK_IsHalted()  returns FALSE (0001ms, 0506ms total)
T307C 001:510 JLINK_IsHalted() -- CPU_ReadMem(2 bytes @ 0x20000000)  returns TRUE (0005ms, 0510ms total)
T307C 001:515 JLINK_ReadReg(R15 (PC))  returns 0x20000000 (0000ms, 0505ms total)
T307C 001:515 JLINK_ClrBPEx(BPHandle = 0x00000005)  returns 0x00 (0000ms, 0505ms total)
T307C 001:515 JLINK_ReadReg(R0)  returns 0x00000000 (0000ms, 0505ms total)
T307C 001:515 JLINK_WriteReg(R0, 0x00000001)  returns 0x00 (0000ms, 0505ms total)
T307C 001:515 JLINK_WriteReg(R1, 0x00004000)  returns 0x00 (0000ms, 0505ms total)
T307C 001:515 JLINK_WriteReg(R2, 0x000000FF)  returns 0x00 (0000ms, 0505ms total)
T307C 001:515 JLINK_WriteReg(R3, 0x00000000)  returns 0x00 (0000ms, 0505ms total)
T307C 001:515 JLINK_WriteReg(R4, 0x00000000)  returns 0x00 (0000ms, 0505ms total)
T307C 001:515 JLINK_WriteReg(R5, 0x00000000)  returns 0x00 (0000ms, 0505ms total)
T307C 001:515 JLINK_WriteReg(R6, 0x00000000)  returns 0x00 (0000ms, 0505ms total)
T307C 001:515 JLINK_WriteReg(R7, 0x00000000)  returns 0x00 (0000ms, 0505ms total)
T307C 001:515 JLINK_WriteReg(R8, 0x00000000)  returns 0x00 (0000ms, 0505ms total)
T307C 001:515 JLINK_WriteReg(R9, 0x20000194)  returns 0x00 (0000ms, 0505ms total)
T307C 001:515 JLINK_WriteReg(R10, 0x00000000)  returns 0x00 (0000ms, 0505ms total)
T307C 001:515 JLINK_WriteReg(R11, 0x00000000)  returns 0x00 (0000ms, 0505ms total)
T307C 001:515 JLINK_WriteReg(R12, 0x00000000)  returns 0x00 (0000ms, 0505ms total)
T307C 001:515 JLINK_WriteReg(R13 (SP), 0x20001000)  returns 0x00 (0000ms, 0505ms total)
T307C 001:516 JLINK_WriteReg(R14, 0x20000001)  returns 0x00 (0000ms, 0506ms total)
T307C 001:516 JLINK_WriteReg(R15 (PC), 0x2000008C)  returns 0x00 (0000ms, 0506ms total)
T307C 001:516 JLINK_WriteReg(XPSR, 0x01000000)  returns 0x00 (0000ms, 0506ms total)
T307C 001:516 JLINK_WriteReg(MSP, 0x20001000)  returns 0x00 (0000ms, 0506ms total)
T307C 001:516 JLINK_WriteReg(PSP, 0x20001000)  returns 0x00 (0000ms, 0506ms total)
T307C 001:516 JLINK_WriteReg(CFBP, 0x00000000)  returns 0x00 (0000ms, 0506ms total)
T307C 001:516 JLINK_SetBPEx(Addr = 0x20000000, Type = 0xFFFFFFF2)  returns 0x00000006 (0000ms, 0506ms total)
T307C 001:516 JLINK_Go() -- CPU_ReadMem(4 bytes @ 0xE0001000) (0005ms, 0511ms total)
T307C 001:522 JLINK_IsHalted() -- CPU_ReadMem(2 bytes @ 0x20000000)  returns TRUE (0005ms, 0516ms total)
T307C 001:527 JLINK_ReadReg(R15 (PC))  returns 0x20000000 (0000ms, 0511ms total)
T307C 001:527 JLINK_ClrBPEx(BPHandle = 0x00000006)  returns 0x00 (0000ms, 0511ms total)
T307C 001:527 JLINK_ReadReg(R0)  returns 0x00000000 (0000ms, 0511ms total)
T307C 001:583 JLINK_WriteMem(0x20000000, 0x0198 Bytes, ...) - Data: 00 BE 0A E0 0D 78 2D 06 68 40 08 24 40 00 00 D3 ... -- CPU_WriteMem(408 bytes @ 0x20000000)  returns 0x198 (0006ms, 0517ms total)
T307C 001:589 JLINK_WriteReg(R0, 0x08000000)  returns 0x00 (0000ms, 0517ms total)
T307C 001:589 JLINK_WriteReg(R1, 0x00B71B00)  returns 0x00 (0000ms, 0517ms total)
T307C 001:589 JLINK_WriteReg(R2, 0x00000002)  returns 0x00 (0000ms, 0517ms total)
T307C 001:589 JLINK_WriteReg(R3, 0x00000000)  returns 0x00 (0000ms, 0517ms total)
T307C 001:589 JLINK_WriteReg(R4, 0x00000000)  returns 0x00 (0000ms, 0517ms total)
T307C 001:589 JLINK_WriteReg(R5, 0x00000000)  returns 0x00 (0000ms, 0517ms total)
T307C 001:589 JLINK_WriteReg(R6, 0x00000000)  returns 0x00 (0000ms, 0517ms total)
T307C 001:589 JLINK_WriteReg(R7, 0x00000000)  returns 0x00 (0000ms, 0517ms total)
T307C 001:589 JLINK_WriteReg(R8, 0x00000000)  returns 0x00 (0000ms, 0517ms total)
T307C 001:589 JLINK_WriteReg(R9, 0x20000194)  returns 0x00 (0000ms, 0517ms total)
T307C 001:589 JLINK_WriteReg(R10, 0x00000000)  returns 0x00 (0000ms, 0517ms total)
T307C 001:589 JLINK_WriteReg(R11, 0x00000000)  returns 0x00 (0000ms, 0517ms total)
T307C 001:589 JLINK_WriteReg(R12, 0x00000000)  returns 0x00 (0000ms, 0517ms total)
T307C 001:589 JLINK_WriteReg(R13 (SP), 0x20001000)  returns 0x00 (0000ms, 0517ms total)
T307C 001:589 JLINK_WriteReg(R14, 0x20000001)  returns 0x00 (0000ms, 0517ms total)
T307C 001:589 JLINK_WriteReg(R15 (PC), 0x2000005E)  returns 0x00 (0000ms, 0517ms total)
T307C 001:589 JLINK_WriteReg(XPSR, 0x01000000)  returns 0x00 (0000ms, 0517ms total)
T307C 001:589 JLINK_WriteReg(MSP, 0x20001000)  returns 0x00 (0000ms, 0517ms total)
T307C 001:589 JLINK_WriteReg(PSP, 0x20001000)  returns 0x00 (0000ms, 0517ms total)
T307C 001:589 JLINK_WriteReg(CFBP, 0x00000000)  returns 0x00 (0000ms, 0517ms total)
T307C 001:589 JLINK_SetBPEx(Addr = 0x20000000, Type = 0xFFFFFFF2) -- CPU_ReadMem(2 bytes @ 0x20000000)  returns 0x00000007 (0002ms, 0519ms total)
T307C 001:591 JLINK_Go() -- CPU_WriteMem(2 bytes @ 0x20000000) -- CPU_ReadMem(4 bytes @ 0xE0001000) (0007ms, 0526ms total)
T307C 001:598 JLINK_IsHalted() -- CPU_ReadMem(2 bytes @ 0x20000000)  returns TRUE (0005ms, 0531ms total)
T307C 001:603 JLINK_ReadReg(R15 (PC))  returns 0x20000000 (0000ms, 0526ms total)
T307C 001:603 JLINK_ClrBPEx(BPHandle = 0x00000007)  returns 0x00 (0000ms, 0526ms total)
T307C 001:603 JLINK_ReadReg(R0)  returns 0x00000000 (0000ms, 0526ms total)
T307C 001:604 JLINK_WriteMem(0x20000198, 0x0268 Bytes, ...) - Data: C8 4E 00 20 7D 02 00 08 61 3C 00 08 1F 32 00 08 ... -- CPU_WriteMem(616 bytes @ 0x20000198)  returns 0x268 (0008ms, 0534ms total)
T307C 001:612 JLINK_WriteMem(0x20000400, 0x0198 Bytes, ...) - Data: 6F 8F 70 47 00 BF 00 BF 98 00 00 20 EF F3 05 80 ... -- CPU_WriteMem(408 bytes @ 0x20000400)  returns 0x198 (0006ms, 0540ms total)
T307C 001:618 JLINK_WriteReg(R0, 0x08000000)  returns 0x00 (0000ms, 0540ms total)
T307C 001:618 JLINK_WriteReg(R1, 0x00000400)  returns 0x00 (0000ms, 0540ms total)
T307C 001:618 JLINK_WriteReg(R2, 0x20000198)  returns 0x00 (0000ms, 0540ms total)
T307C 001:618 JLINK_WriteReg(R3, 0x00000000)  returns 0x00 (0000ms, 0540ms total)
T307C 001:618 JLINK_WriteReg(R4, 0x00000000)  returns 0x00 (0000ms, 0540ms total)
T307C 001:618 JLINK_WriteReg(R5, 0x00000000)  returns 0x00 (0000ms, 0540ms total)
T307C 001:618 JLINK_WriteReg(R6, 0x00000000)  returns 0x00 (0000ms, 0540ms total)
T307C 001:618 JLINK_WriteReg(R7, 0x00000000)  returns 0x00 (0000ms, 0540ms total)
T307C 001:618 JLINK_WriteReg(R8, 0x00000000)  returns 0x00 (0000ms, 0540ms total)
T307C 001:618 JLINK_WriteReg(R9, 0x20000194)  returns 0x00 (0000ms, 0540ms total)
T307C 001:618 JLINK_WriteReg(R10, 0x00000000)  returns 0x00 (0000ms, 0540ms total)
T307C 001:618 JLINK_WriteReg(R11, 0x00000000)  returns 0x00 (0000ms, 0540ms total)
T307C 001:618 JLINK_WriteReg(R12, 0x00000000)  returns 0x00 (0000ms, 0540ms total)
T307C 001:618 JLINK_WriteReg(R13 (SP), 0x20001000)  returns 0x00 (0000ms, 0540ms total)
T307C 001:618 JLINK_WriteReg(R14, 0x20000001)  returns 0x00 (0000ms, 0540ms total)
T307C 001:618 JLINK_WriteReg(R15 (PC), 0x20000120)  returns 0x00 (0000ms, 0540ms total)
T307C 001:618 JLINK_WriteReg(XPSR, 0x01000000)  returns 0x00 (0000ms, 0540ms total)
T307C 001:618 JLINK_WriteReg(MSP, 0x20001000)  returns 0x00 (0000ms, 0540ms total)
T307C 001:618 JLINK_WriteReg(PSP, 0x20001000)  returns 0x00 (0000ms, 0540ms total)
T307C 001:618 JLINK_WriteReg(CFBP, 0x00000000)  returns 0x00 (0000ms, 0540ms total)
T307C 001:618 JLINK_SetBPEx(Addr = 0x20000000, Type = 0xFFFFFFF2)  returns 0x00000008 (0000ms, 0540ms total)
T307C 001:618 JLINK_Go() -- CPU_ReadMem(4 bytes @ 0xE0001000) (0006ms, 0546ms total)
T307C 001:624 JLINK_IsHalted()  returns FALSE (0001ms, 0547ms total)
T307C 001:803 JLINK_IsHalted() -- CPU_ReadMem(2 bytes @ 0x20000000)  returns TRUE (0005ms, 0551ms total)
T307C 001:808 JLINK_ReadReg(R15 (PC))  returns 0x20000000 (0000ms, 0546ms total)
T307C 001:808 JLINK_ClrBPEx(BPHandle = 0x00000008)  returns 0x00 (0000ms, 0546ms total)
T307C 001:808 JLINK_ReadReg(R0)  returns 0x00000000 (0000ms, 0546ms total)
T307C 001:809 JLINK_WriteMem(0x20000198, 0x0268 Bytes, ...) - Data: 00 20 01 46 70 47 01 F0 00 43 30 B4 21 F0 00 41 ... -- CPU_WriteMem(616 bytes @ 0x20000198)  returns 0x268 (0009ms, 0555ms total)
T307C 001:818 JLINK_WriteMem(0x20000400, 0x0198 Bytes, ...) - Data: 59 46 01 9A 00 F0 3D F9 10 EB 08 00 61 41 00 24 ... -- CPU_WriteMem(408 bytes @ 0x20000400)  returns 0x198 (0006ms, 0561ms total)
T307C 001:824 JLINK_WriteReg(R0, 0x08000400)  returns 0x00 (0000ms, 0561ms total)
T307C 001:824 JLINK_WriteReg(R1, 0x00000400)  returns 0x00 (0000ms, 0561ms total)
T307C 001:824 JLINK_WriteReg(R2, 0x20000198)  returns 0x00 (0000ms, 0561ms total)
T307C 001:824 JLINK_WriteReg(R3, 0x00000000)  returns 0x00 (0000ms, 0561ms total)
T307C 001:824 JLINK_WriteReg(R4, 0x00000000)  returns 0x00 (0000ms, 0561ms total)
T307C 001:824 JLINK_WriteReg(R5, 0x00000000)  returns 0x00 (0000ms, 0561ms total)
T307C 001:824 JLINK_WriteReg(R6, 0x00000000)  returns 0x00 (0000ms, 0561ms total)
T307C 001:824 JLINK_WriteReg(R7, 0x00000000)  returns 0x00 (0000ms, 0561ms total)
T307C 001:824 JLINK_WriteReg(R8, 0x00000000)  returns 0x00 (0000ms, 0561ms total)
T307C 001:824 JLINK_WriteReg(R9, 0x20000194)  returns 0x00 (0000ms, 0561ms total)
T307C 001:824 JLINK_WriteReg(R10, 0x00000000)  returns 0x00 (0000ms, 0561ms total)
T307C 001:824 JLINK_WriteReg(R11, 0x00000000)  returns 0x00 (0000ms, 0561ms total)
T307C 001:824 JLINK_WriteReg(R12, 0x00000000)  returns 0x00 (0000ms, 0561ms total)
T307C 001:824 JLINK_WriteReg(R13 (SP), 0x20001000)  returns 0x00 (0000ms, 0561ms total)
T307C 001:824 JLINK_WriteReg(R14, 0x20000001)  returns 0x00 (0000ms, 0561ms total)
T307C 001:824 JLINK_WriteReg(R15 (PC), 0x20000120)  returns 0x00 (0000ms, 0561ms total)
T307C 001:824 JLINK_WriteReg(XPSR, 0x01000000)  returns 0x00 (0000ms, 0561ms total)
T307C 001:824 JLINK_WriteReg(MSP, 0x20001000)  returns 0x00 (0000ms, 0561ms total)
T307C 001:824 JLINK_WriteReg(PSP, 0x20001000)  returns 0x00 (0000ms, 0561ms total)
T307C 001:824 JLINK_WriteReg(CFBP, 0x00000000)  returns 0x00 (0000ms, 0561ms total)
T307C 001:824 JLINK_SetBPEx(Addr = 0x20000000, Type = 0xFFFFFFF2)  returns 0x00000009 (0000ms, 0561ms total)
T307C 001:824 JLINK_Go() -- CPU_ReadMem(4 bytes @ 0xE0001000) (0005ms, 0566ms total)
T307C 001:829 JLINK_IsHalted()  returns FALSE (0001ms, 0567ms total)
T307C 001:957 JLINK_IsHalted() -- CPU_ReadMem(2 bytes @ 0x20000000)  returns TRUE (0005ms, 0571ms total)
T307C 001:962 JLINK_ReadReg(R15 (PC))  returns 0x20000000 (0000ms, 0566ms total)
T307C 001:962 JLINK_ClrBPEx(BPHandle = 0x00000009)  returns 0x00 (0000ms, 0566ms total)
T307C 001:962 JLINK_ReadReg(R0)  returns 0x00000000 (0000ms, 0566ms total)
T307C 001:963 JLINK_WriteMem(0x20000198, 0x0268 Bytes, ...) - Data: 4F EA 04 32 01 9C 43 EA 06 03 A4 F1 0C 04 02 94 ... -- CPU_WriteMem(616 bytes @ 0x20000198)  returns 0x268 (0008ms, 0574ms total)
T307C 001:971 JLINK_WriteMem(0x20000400, 0x0198 Bytes, ...) - Data: 0D 49 0B 48 02 F0 32 FB 02 F0 30 FC 00 21 06 48 ... -- CPU_WriteMem(408 bytes @ 0x20000400)  returns 0x198 (0006ms, 0580ms total)
T307C 001:977 JLINK_WriteReg(R0, 0x08000800)  returns 0x00 (0000ms, 0580ms total)
T307C 001:977 JLINK_WriteReg(R1, 0x00000400)  returns 0x00 (0000ms, 0580ms total)
T307C 001:977 JLINK_WriteReg(R2, 0x20000198)  returns 0x00 (0000ms, 0580ms total)
T307C 001:977 JLINK_WriteReg(R3, 0x00000000)  returns 0x00 (0000ms, 0580ms total)
T307C 001:977 JLINK_WriteReg(R4, 0x00000000)  returns 0x00 (0000ms, 0580ms total)
T307C 001:977 JLINK_WriteReg(R5, 0x00000000)  returns 0x00 (0000ms, 0580ms total)
T307C 001:977 JLINK_WriteReg(R6, 0x00000000)  returns 0x00 (0000ms, 0580ms total)
T307C 001:977 JLINK_WriteReg(R7, 0x00000000)  returns 0x00 (0000ms, 0580ms total)
T307C 001:977 JLINK_WriteReg(R8, 0x00000000)  returns 0x00 (0000ms, 0580ms total)
T307C 001:977 JLINK_WriteReg(R9, 0x20000194)  returns 0x00 (0000ms, 0580ms total)
T307C 001:977 JLINK_WriteReg(R10, 0x00000000)  returns 0x00 (0000ms, 0580ms total)
T307C 001:977 JLINK_WriteReg(R11, 0x00000000)  returns 0x00 (0000ms, 0580ms total)
T307C 001:977 JLINK_WriteReg(R12, 0x00000000)  returns 0x00 (0000ms, 0580ms total)
T307C 001:977 JLINK_WriteReg(R13 (SP), 0x20001000)  returns 0x00 (0000ms, 0580ms total)
T307C 001:977 JLINK_WriteReg(R14, 0x20000001)  returns 0x00 (0000ms, 0580ms total)
T307C 001:977 JLINK_WriteReg(R15 (PC), 0x20000120)  returns 0x00 (0000ms, 0580ms total)
T307C 001:977 JLINK_WriteReg(XPSR, 0x01000000)  returns 0x00 (0000ms, 0580ms total)
T307C 001:977 JLINK_WriteReg(MSP, 0x20001000)  returns 0x00 (0000ms, 0580ms total)
T307C 001:977 JLINK_WriteReg(PSP, 0x20001000)  returns 0x00 (0000ms, 0580ms total)
T307C 001:977 JLINK_WriteReg(CFBP, 0x00000000)  returns 0x00 (0000ms, 0580ms total)
T307C 001:977 JLINK_SetBPEx(Addr = 0x20000000, Type = 0xFFFFFFF2)  returns 0x0000000A (0000ms, 0580ms total)
T307C 001:977 JLINK_Go() -- CPU_ReadMem(4 bytes @ 0xE0001000) (0006ms, 0586ms total)
T307C 001:983 JLINK_IsHalted()  returns FALSE (0001ms, 0587ms total)
T307C 001:986 JLINK_IsHalted()  returns FALSE (0001ms, 0587ms total)
T307C 001:989 JLINK_IsHalted() -- CPU_ReadMem(2 bytes @ 0x20000000)  returns TRUE (0004ms, 0590ms total)
T307C 001:993 JLINK_ReadReg(R15 (PC))  returns 0x20000000 (0000ms, 0586ms total)
T307C 001:993 JLINK_ClrBPEx(BPHandle = 0x0000000A)  returns 0x00 (0000ms, 0586ms total)
T307C 001:993 JLINK_ReadReg(R0)  returns 0x00000000 (0001ms, 0587ms total)
T307C 001:994 JLINK_WriteMem(0x20000198, 0x0268 Bytes, ...) - Data: 01 68 4A 69 22 F0 02 02 F0 E7 01 68 4A 69 22 F4 ... -- CPU_WriteMem(616 bytes @ 0x20000198)  returns 0x268 (0009ms, 0596ms total)
T307C 002:003 JLINK_WriteMem(0x20000400, 0x0198 Bytes, ...) - Data: 10 BD 00 2A F7 D0 01 2A F2 D0 02 2A F3 D0 03 2A ... -- CPU_WriteMem(408 bytes @ 0x20000400)  returns 0x198 (0006ms, 0602ms total)
T307C 002:009 JLINK_WriteReg(R0, 0x08000C00)  returns 0x00 (0000ms, 0602ms total)
T307C 002:009 JLINK_WriteReg(R1, 0x00000400)  returns 0x00 (0000ms, 0602ms total)
T307C 002:009 JLINK_WriteReg(R2, 0x20000198)  returns 0x00 (0000ms, 0602ms total)
T307C 002:009 JLINK_WriteReg(R3, 0x00000000)  returns 0x00 (0000ms, 0602ms total)
T307C 002:009 JLINK_WriteReg(R4, 0x00000000)  returns 0x00 (0000ms, 0602ms total)
T307C 002:009 JLINK_WriteReg(R5, 0x00000000)  returns 0x00 (0000ms, 0602ms total)
T307C 002:009 JLINK_WriteReg(R6, 0x00000000)  returns 0x00 (0000ms, 0602ms total)
T307C 002:009 JLINK_WriteReg(R7, 0x00000000)  returns 0x00 (0000ms, 0602ms total)
T307C 002:009 JLINK_WriteReg(R8, 0x00000000)  returns 0x00 (0000ms, 0602ms total)
T307C 002:009 JLINK_WriteReg(R9, 0x20000194)  returns 0x00 (0000ms, 0602ms total)
T307C 002:009 JLINK_WriteReg(R10, 0x00000000)  returns 0x00 (0000ms, 0602ms total)
T307C 002:009 JLINK_WriteReg(R11, 0x00000000)  returns 0x00 (0000ms, 0602ms total)
T307C 002:009 JLINK_WriteReg(R12, 0x00000000)  returns 0x00 (0000ms, 0602ms total)
T307C 002:009 JLINK_WriteReg(R13 (SP), 0x20001000)  returns 0x00 (0000ms, 0602ms total)
T307C 002:009 JLINK_WriteReg(R14, 0x20000001)  returns 0x00 (0000ms, 0602ms total)
T307C 002:009 JLINK_WriteReg(R15 (PC), 0x20000120)  returns 0x00 (0000ms, 0602ms total)
T307C 002:009 JLINK_WriteReg(XPSR, 0x01000000)  returns 0x00 (0000ms, 0602ms total)
T307C 002:009 JLINK_WriteReg(MSP, 0x20001000)  returns 0x00 (0000ms, 0602ms total)
T307C 002:009 JLINK_WriteReg(PSP, 0x20001000)  returns 0x00 (0000ms, 0602ms total)
T307C 002:009 JLINK_WriteReg(CFBP, 0x00000000)  returns 0x00 (0000ms, 0602ms total)
T307C 002:009 JLINK_SetBPEx(Addr = 0x20000000, Type = 0xFFFFFFF2)  returns 0x0000000B (0000ms, 0602ms total)
T307C 002:009 JLINK_Go() -- CPU_ReadMem(4 bytes @ 0xE0001000) (0005ms, 0607ms total)
T307C 002:014 JLINK_IsHalted()  returns FALSE (0001ms, 0608ms total)
T307C 002:020 JLINK_IsHalted() -- CPU_ReadMem(2 bytes @ 0x20000000)  returns TRUE (0005ms, 0612ms total)
T307C 002:025 JLINK_ReadReg(R15 (PC))  returns 0x20000000 (0000ms, 0607ms total)
T307C 002:025 JLINK_ClrBPEx(BPHandle = 0x0000000B)  returns 0x00 (0000ms, 0607ms total)
T307C 002:025 JLINK_ReadReg(R0)  returns 0x00000000 (0000ms, 0607ms total)
T307C 002:026 JLINK_WriteMem(0x20000198, 0x0268 Bytes, ...) - Data: BA F9 00 00 D6 ED 14 0A 00 EE 10 0A 57 46 25 48 ... -- CPU_WriteMem(616 bytes @ 0x20000198)  returns 0x268 (0008ms, 0615ms total)
T307C 002:034 JLINK_WriteMem(0x20000400, 0x0198 Bytes, ...) - Data: 34 00 00 20 A4 0B 00 20 08 01 00 20 C4 07 00 20 ... -- CPU_WriteMem(408 bytes @ 0x20000400)  returns 0x198 (0006ms, 0621ms total)
T307C 002:040 JLINK_WriteReg(R0, 0x08001000)  returns 0x00 (0000ms, 0621ms total)
T307C 002:040 JLINK_WriteReg(R1, 0x00000400)  returns 0x00 (0000ms, 0621ms total)
T307C 002:040 JLINK_WriteReg(R2, 0x20000198)  returns 0x00 (0000ms, 0621ms total)
T307C 002:040 JLINK_WriteReg(R3, 0x00000000)  returns 0x00 (0000ms, 0621ms total)
T307C 002:040 JLINK_WriteReg(R4, 0x00000000)  returns 0x00 (0000ms, 0621ms total)
T307C 002:040 JLINK_WriteReg(R5, 0x00000000)  returns 0x00 (0000ms, 0621ms total)
T307C 002:040 JLINK_WriteReg(R6, 0x00000000)  returns 0x00 (0000ms, 0621ms total)
T307C 002:040 JLINK_WriteReg(R7, 0x00000000)  returns 0x00 (0000ms, 0621ms total)
T307C 002:040 JLINK_WriteReg(R8, 0x00000000)  returns 0x00 (0000ms, 0621ms total)
T307C 002:040 JLINK_WriteReg(R9, 0x20000194)  returns 0x00 (0000ms, 0621ms total)
T307C 002:040 JLINK_WriteReg(R10, 0x00000000)  returns 0x00 (0000ms, 0621ms total)
T307C 002:040 JLINK_WriteReg(R11, 0x00000000)  returns 0x00 (0000ms, 0621ms total)
T307C 002:040 JLINK_WriteReg(R12, 0x00000000)  returns 0x00 (0000ms, 0621ms total)
T307C 002:040 JLINK_WriteReg(R13 (SP), 0x20001000)  returns 0x00 (0000ms, 0621ms total)
T307C 002:040 JLINK_WriteReg(R14, 0x20000001)  returns 0x00 (0000ms, 0621ms total)
T307C 002:040 JLINK_WriteReg(R15 (PC), 0x20000120)  returns 0x00 (0000ms, 0621ms total)
T307C 002:040 JLINK_WriteReg(XPSR, 0x01000000)  returns 0x00 (0000ms, 0621ms total)
T307C 002:040 JLINK_WriteReg(MSP, 0x20001000)  returns 0x00 (0000ms, 0621ms total)
T307C 002:040 JLINK_WriteReg(PSP, 0x20001000)  returns 0x00 (0000ms, 0621ms total)
T307C 002:040 JLINK_WriteReg(CFBP, 0x00000000)  returns 0x00 (0000ms, 0621ms total)
T307C 002:040 JLINK_SetBPEx(Addr = 0x20000000, Type = 0xFFFFFFF2)  returns 0x0000000C (0000ms, 0621ms total)
T307C 002:040 JLINK_Go() -- CPU_ReadMem(4 bytes @ 0xE0001000) (0006ms, 0627ms total)
T307C 002:046 JLINK_IsHalted()  returns FALSE (0001ms, 0628ms total)
T307C 002:049 JLINK_IsHalted()  returns FALSE (0001ms, 0628ms total)
T307C 002:052 JLINK_IsHalted() -- CPU_ReadMem(2 bytes @ 0x20000000)  returns TRUE (0005ms, 0632ms total)
T307C 002:057 JLINK_ReadReg(R15 (PC))  returns 0x20000000 (0000ms, 0627ms total)
T307C 002:057 JLINK_ClrBPEx(BPHandle = 0x0000000C)  returns 0x00 (0000ms, 0627ms total)
T307C 002:057 JLINK_ReadReg(R0)  returns 0x00000000 (0000ms, 0627ms total)
T307C 002:058 JLINK_WriteMem(0x20000198, 0x0268 Bytes, ...) - Data: 68 D0 A1 69 01 29 01 68 3F D0 21 F0 80 01 01 60 ... -- CPU_WriteMem(616 bytes @ 0x20000198)  returns 0x268 (0008ms, 0635ms total)
T307C 002:066 JLINK_WriteMem(0x20000400, 0x0198 Bytes, ...) - Data: C5 62 24 49 24 48 20 E0 02 20 02 F0 5D FB 23 48 ... -- CPU_WriteMem(408 bytes @ 0x20000400)  returns 0x198 (0006ms, 0641ms total)
T307C 002:072 JLINK_WriteReg(R0, 0x08001400)  returns 0x00 (0000ms, 0641ms total)
T307C 002:072 JLINK_WriteReg(R1, 0x00000400)  returns 0x00 (0000ms, 0641ms total)
T307C 002:072 JLINK_WriteReg(R2, 0x20000198)  returns 0x00 (0000ms, 0641ms total)
T307C 002:072 JLINK_WriteReg(R3, 0x00000000)  returns 0x00 (0000ms, 0641ms total)
T307C 002:072 JLINK_WriteReg(R4, 0x00000000)  returns 0x00 (0001ms, 0642ms total)
T307C 002:073 JLINK_WriteReg(R5, 0x00000000)  returns 0x00 (0000ms, 0642ms total)
T307C 002:073 JLINK_WriteReg(R6, 0x00000000)  returns 0x00 (0000ms, 0642ms total)
T307C 002:073 JLINK_WriteReg(R7, 0x00000000)  returns 0x00 (0000ms, 0642ms total)
T307C 002:073 JLINK_WriteReg(R8, 0x00000000)  returns 0x00 (0000ms, 0642ms total)
T307C 002:073 JLINK_WriteReg(R9, 0x20000194)  returns 0x00 (0000ms, 0642ms total)
T307C 002:073 JLINK_WriteReg(R10, 0x00000000)  returns 0x00 (0000ms, 0642ms total)
T307C 002:073 JLINK_WriteReg(R11, 0x00000000)  returns 0x00 (0000ms, 0642ms total)
T307C 002:073 JLINK_WriteReg(R12, 0x00000000)  returns 0x00 (0000ms, 0642ms total)
T307C 002:073 JLINK_WriteReg(R13 (SP), 0x20001000)  returns 0x00 (0000ms, 0642ms total)
T307C 002:073 JLINK_WriteReg(R14, 0x20000001)  returns 0x00 (0000ms, 0642ms total)
T307C 002:073 JLINK_WriteReg(R15 (PC), 0x20000120)  returns 0x00 (0000ms, 0642ms total)
T307C 002:073 JLINK_WriteReg(XPSR, 0x01000000)  returns 0x00 (0000ms, 0642ms total)
T307C 002:073 JLINK_WriteReg(MSP, 0x20001000)  returns 0x00 (0000ms, 0642ms total)
T307C 002:073 JLINK_WriteReg(PSP, 0x20001000)  returns 0x00 (0000ms, 0642ms total)
T307C 002:073 JLINK_WriteReg(CFBP, 0x00000000)  returns 0x00 (0000ms, 0642ms total)
T307C 002:073 JLINK_SetBPEx(Addr = 0x20000000, Type = 0xFFFFFFF2)  returns 0x0000000D (0000ms, 0642ms total)
T307C 002:073 JLINK_Go() -- CPU_ReadMem(4 bytes @ 0xE0001000) (0005ms, 0647ms total)
T307C 002:078 JLINK_IsHalted()  returns FALSE (0001ms, 0648ms total)
T307C 002:083 JLINK_IsHalted() -- CPU_ReadMem(2 bytes @ 0x20000000)  returns TRUE (0005ms, 0652ms total)
T307C 002:088 JLINK_ReadReg(R15 (PC))  returns 0x20000000 (0000ms, 0647ms total)
T307C 002:088 JLINK_ClrBPEx(BPHandle = 0x0000000D)  returns 0x00 (0000ms, 0647ms total)
T307C 002:088 JLINK_ReadReg(R0)  returns 0x00000000 (0000ms, 0647ms total)
T307C 002:089 JLINK_WriteMem(0x20000198, 0x0268 Bytes, ...) - Data: 01 02 0A 50 00 F0 18 FB 81 46 4F F0 00 08 DF F8 ... -- CPU_WriteMem(616 bytes @ 0x20000198)  returns 0x268 (0008ms, 0655ms total)
T307C 002:097 JLINK_WriteMem(0x20000400, 0x0198 Bytes, ...) - Data: FC 00 00 20 01 00 80 00 2D E9 F0 41 04 46 00 F0 ... -- CPU_WriteMem(408 bytes @ 0x20000400)  returns 0x198 (0006ms, 0661ms total)
T307C 002:103 JLINK_WriteReg(R0, 0x08001800)  returns 0x00 (0000ms, 0661ms total)
T307C 002:103 JLINK_WriteReg(R1, 0x00000400)  returns 0x00 (0000ms, 0661ms total)
T307C 002:103 JLINK_WriteReg(R2, 0x20000198)  returns 0x00 (0000ms, 0661ms total)
T307C 002:103 JLINK_WriteReg(R3, 0x00000000)  returns 0x00 (0000ms, 0661ms total)
T307C 002:103 JLINK_WriteReg(R4, 0x00000000)  returns 0x00 (0000ms, 0661ms total)
T307C 002:103 JLINK_WriteReg(R5, 0x00000000)  returns 0x00 (0001ms, 0662ms total)
T307C 002:104 JLINK_WriteReg(R6, 0x00000000)  returns 0x00 (0000ms, 0662ms total)
T307C 002:104 JLINK_WriteReg(R7, 0x00000000)  returns 0x00 (0000ms, 0662ms total)
T307C 002:104 JLINK_WriteReg(R8, 0x00000000)  returns 0x00 (0000ms, 0662ms total)
T307C 002:104 JLINK_WriteReg(R9, 0x20000194)  returns 0x00 (0000ms, 0662ms total)
T307C 002:104 JLINK_WriteReg(R10, 0x00000000)  returns 0x00 (0000ms, 0662ms total)
T307C 002:104 JLINK_WriteReg(R11, 0x00000000)  returns 0x00 (0000ms, 0662ms total)
T307C 002:104 JLINK_WriteReg(R12, 0x00000000)  returns 0x00 (0000ms, 0662ms total)
T307C 002:104 JLINK_WriteReg(R13 (SP), 0x20001000)  returns 0x00 (0000ms, 0662ms total)
T307C 002:104 JLINK_WriteReg(R14, 0x20000001)  returns 0x00 (0000ms, 0662ms total)
T307C 002:104 JLINK_WriteReg(R15 (PC), 0x20000120)  returns 0x00 (0000ms, 0662ms total)
T307C 002:104 JLINK_WriteReg(XPSR, 0x01000000)  returns 0x00 (0000ms, 0662ms total)
T307C 002:104 JLINK_WriteReg(MSP, 0x20001000)  returns 0x00 (0000ms, 0662ms total)
T307C 002:104 JLINK_WriteReg(PSP, 0x20001000)  returns 0x00 (0000ms, 0662ms total)
T307C 002:104 JLINK_WriteReg(CFBP, 0x00000000)  returns 0x00 (0000ms, 0662ms total)
T307C 002:104 JLINK_SetBPEx(Addr = 0x20000000, Type = 0xFFFFFFF2)  returns 0x0000000E (0000ms, 0662ms total)
T307C 002:104 JLINK_Go() -- CPU_ReadMem(4 bytes @ 0xE0001000) (0006ms, 0668ms total)
T307C 002:110 JLINK_IsHalted()  returns FALSE (0001ms, 0669ms total)
T307C 002:119 JLINK_IsHalted() -- CPU_ReadMem(2 bytes @ 0x20000000)  returns TRUE (0006ms, 0674ms total)
T307C 002:125 JLINK_ReadReg(R15 (PC))  returns 0x20000000 (0000ms, 0668ms total)
T307C 002:125 JLINK_ClrBPEx(BPHandle = 0x0000000E)  returns 0x00 (0001ms, 0669ms total)
T307C 002:126 JLINK_ReadReg(R0)  returns 0x00000000 (0000ms, 0669ms total)
T307C 002:127 JLINK_WriteMem(0x20000198, 0x0268 Bytes, ...) - Data: 51 EC 10 0B FE F7 70 FB FE F7 FD FB 0A 49 48 60 ... -- CPU_WriteMem(616 bytes @ 0x20000198)  returns 0x268 (0009ms, 0678ms total)
T307C 002:136 JLINK_WriteMem(0x20000400, 0x0198 Bytes, ...) - Data: 01 68 41 F4 80 71 01 60 03 20 00 F0 9B F8 00 20 ... -- CPU_WriteMem(408 bytes @ 0x20000400)  returns 0x198 (0006ms, 0684ms total)
T307C 002:142 JLINK_WriteReg(R0, 0x08001C00)  returns 0x00 (0000ms, 0684ms total)
T307C 002:142 JLINK_WriteReg(R1, 0x00000400)  returns 0x00 (0000ms, 0684ms total)
T307C 002:142 JLINK_WriteReg(R2, 0x20000198)  returns 0x00 (0000ms, 0684ms total)
T307C 002:142 JLINK_WriteReg(R3, 0x00000000)  returns 0x00 (0000ms, 0684ms total)
T307C 002:142 JLINK_WriteReg(R4, 0x00000000)  returns 0x00 (0000ms, 0684ms total)
T307C 002:142 JLINK_WriteReg(R5, 0x00000000)  returns 0x00 (0000ms, 0684ms total)
T307C 002:142 JLINK_WriteReg(R6, 0x00000000)  returns 0x00 (0000ms, 0684ms total)
T307C 002:142 JLINK_WriteReg(R7, 0x00000000)  returns 0x00 (0001ms, 0685ms total)
T307C 002:143 JLINK_WriteReg(R8, 0x00000000)  returns 0x00 (0000ms, 0685ms total)
T307C 002:143 JLINK_WriteReg(R9, 0x20000194)  returns 0x00 (0000ms, 0685ms total)
T307C 002:143 JLINK_WriteReg(R10, 0x00000000)  returns 0x00 (0000ms, 0685ms total)
T307C 002:143 JLINK_WriteReg(R11, 0x00000000)  returns 0x00 (0000ms, 0685ms total)
T307C 002:143 JLINK_WriteReg(R12, 0x00000000)  returns 0x00 (0000ms, 0685ms total)
T307C 002:143 JLINK_WriteReg(R13 (SP), 0x20001000)  returns 0x00 (0000ms, 0685ms total)
T307C 002:143 JLINK_WriteReg(R14, 0x20000001)  returns 0x00 (0000ms, 0685ms total)
T307C 002:143 JLINK_WriteReg(R15 (PC), 0x20000120)  returns 0x00 (0000ms, 0685ms total)
T307C 002:143 JLINK_WriteReg(XPSR, 0x01000000)  returns 0x00 (0000ms, 0685ms total)
T307C 002:143 JLINK_WriteReg(MSP, 0x20001000)  returns 0x00 (0000ms, 0685ms total)
T307C 002:143 JLINK_WriteReg(PSP, 0x20001000)  returns 0x00 (0000ms, 0685ms total)
T307C 002:143 JLINK_WriteReg(CFBP, 0x00000000)  returns 0x00 (0000ms, 0685ms total)
T307C 002:143 JLINK_SetBPEx(Addr = 0x20000000, Type = 0xFFFFFFF2)  returns 0x0000000F (0000ms, 0685ms total)
T307C 002:143 JLINK_Go() -- CPU_ReadMem(4 bytes @ 0xE0001000) (0006ms, 0691ms total)
T307C 002:149 JLINK_IsHalted()  returns FALSE (0001ms, 0692ms total)
T307C 002:153 JLINK_IsHalted() -- CPU_ReadMem(2 bytes @ 0x20000000)  returns TRUE (0006ms, 0697ms total)
T307C 002:159 JLINK_ReadReg(R15 (PC))  returns 0x20000000 (0000ms, 0691ms total)
T307C 002:159 JLINK_ClrBPEx(BPHandle = 0x0000000F)  returns 0x00 (0000ms, 0691ms total)
T307C 002:159 JLINK_ReadReg(R0)  returns 0x00000000 (0000ms, 0691ms total)
T307C 002:161 JLINK_WriteMem(0x20000198, 0x0268 Bytes, ...) - Data: 4F 4C 80 07 05 D5 20 68 A9 68 20 F0 F0 00 08 43 ... -- CPU_WriteMem(616 bytes @ 0x20000198)  returns 0x268 (0008ms, 0699ms total)
T307C 002:169 JLINK_WriteMem(0x20000400, 0x0198 Bytes, ...) - Data: 00 1B B7 00 2D E9 F8 4F 04 46 DF F8 CC 82 00 78 ... -- CPU_WriteMem(408 bytes @ 0x20000400)  returns 0x198 (0007ms, 0706ms total)
T307C 002:176 JLINK_WriteReg(R0, 0x08002000)  returns 0x00 (0000ms, 0706ms total)
T307C 002:176 JLINK_WriteReg(R1, 0x00000400)  returns 0x00 (0000ms, 0706ms total)
T307C 002:176 JLINK_WriteReg(R2, 0x20000198)  returns 0x00 (0000ms, 0706ms total)
T307C 002:176 JLINK_WriteReg(R3, 0x00000000)  returns 0x00 (0000ms, 0706ms total)
T307C 002:176 JLINK_WriteReg(R4, 0x00000000)  returns 0x00 (0000ms, 0706ms total)
T307C 002:176 JLINK_WriteReg(R5, 0x00000000)  returns 0x00 (0000ms, 0706ms total)
T307C 002:176 JLINK_WriteReg(R6, 0x00000000)  returns 0x00 (0000ms, 0706ms total)
T307C 002:176 JLINK_WriteReg(R7, 0x00000000)  returns 0x00 (0000ms, 0706ms total)
T307C 002:176 JLINK_WriteReg(R8, 0x00000000)  returns 0x00 (0000ms, 0706ms total)
T307C 002:176 JLINK_WriteReg(R9, 0x20000194)  returns 0x00 (0000ms, 0706ms total)
T307C 002:176 JLINK_WriteReg(R10, 0x00000000)  returns 0x00 (0000ms, 0706ms total)
T307C 002:176 JLINK_WriteReg(R11, 0x00000000)  returns 0x00 (0000ms, 0706ms total)
T307C 002:176 JLINK_WriteReg(R12, 0x00000000)  returns 0x00 (0000ms, 0706ms total)
T307C 002:176 JLINK_WriteReg(R13 (SP), 0x20001000)  returns 0x00 (0000ms, 0706ms total)
T307C 002:176 JLINK_WriteReg(R14, 0x20000001)  returns 0x00 (0000ms, 0706ms total)
T307C 002:176 JLINK_WriteReg(R15 (PC), 0x20000120)  returns 0x00 (0001ms, 0707ms total)
T307C 002:177 JLINK_WriteReg(XPSR, 0x01000000)  returns 0x00 (0000ms, 0707ms total)
T307C 002:177 JLINK_WriteReg(MSP, 0x20001000)  returns 0x00 (0000ms, 0707ms total)
T307C 002:177 JLINK_WriteReg(PSP, 0x20001000)  returns 0x00 (0000ms, 0707ms total)
T307C 002:177 JLINK_WriteReg(CFBP, 0x00000000)  returns 0x00 (0000ms, 0707ms total)
